
T1F24 000:334 SEGGER J-Link V4.94g Log File (0024ms, 0297ms total)
T1F24 000:334 DLL Compiled: Nov 21 2014 10:19:50 (0024ms, 0297ms total)
T1F24 000:334 Logging started @ 2014-12-11 18:07 (0024ms, 0297ms total)
T1F24 000:358 JLINK_SetWarnOutHandler(...) (0000ms, 0297ms total)
T1F24 000:358 JLINK_OpenEx(...)
Firmware: J-Link V9 compiled Nov 13 2014 14:37:00
Hardware: V9.00
Feature(s): GDB, RDI, FlashBP, FlashDL, JFlash  returns O.K. (0264ms, 0561ms total)
T1F24 000:622 JLINK_SetErrorOutHandler(...) (0000ms, 0561ms total)
T1F24 000:622 JLINK_ExecCommand("Device = STM32F407ZE", ...)Device "STM32F407ZE" selected (512 KB flash, 128 KB RAM).  returns 0x00 (0016ms, 0577ms total)
T1F24 000:638 JLINK_ExecCommand("ProjectFile = "E:\ST¿ª·¢°å\DVK\LITE²âÊÔ³ÌÐò\ST-M3-LITE-407ZE²âÊÔ³ÌÐò\Project\JLinkSettings.ini"", ...)  returns 0x00 (0018ms, 0595ms total)
T1F24 000:657 JLINK_ExecCommand("DisableConnectionTimeout", ...)  returns 0x01 (0000ms, 0595ms total)
T1F24 000:657 JLINK_TIF_Select(JLINKARM_TIF_SWD)  returns 0x00 (0001ms, 0596ms total)
T1F24 000:658 JLINK_SetSpeed(2000) (0000ms, 0596ms total)
T1F24 000:658 JLINK_GetHardwareVersion()  returns 0x15F90 (0000ms, 0596ms total)
T1F24 000:658 JLINK_GetDLLVersion()  returns 49407 (0000ms, 0596ms total)
T1F24 000:658 JLINK_GetFirmwareString(...) (0000ms, 0596ms total)
T1F24 000:660 JLINK_GetDLLVersion()  returns 49407 (0001ms, 0597ms total)
T1F24 000:661 JLINK_GetCompileDateTime() (0000ms, 0597ms total)
T1F24 000:661 JLINK_GetFirmwareString(...) (0000ms, 0597ms total)
T1F24 000:662 JLINK_GetHardwareVersion()  returns 0x15F90 (0000ms, 0597ms total)
T1F24 000:664 JLINK_GetId() >0x108 TIF>Found SWD-DP with ID 0x2BA01477 >0x0D TIF> >0x28 TIF> >0x0D TIF> >0x28 TIF> >0x0D TIF> >0x21 TIF> >0x0D TIF> >0x28 TIF> >0x0D TIF> >0x28 TIF> >0x0D TIF> >0x28 TIF> >0x0D TIF> >0x21 TIF> >0x0D TIF> >0x21 TIF> >0x0D TIF> >0x28 TIF> >0x0D TIF> >0x21 TIF> >0x0D TIF> >0x21 TIF> >0x0D TIF> >0x28 TIF> >0x0D TIF> >0x28 TIF> >0x0D TIF> >0x28 TIF> >0x0D TIF> >0x21 TIF> >0x0D TIF> >0x21 TIF> >0x0D TIF> >0x28 TIF> >0x0D TIF> >0x28 TIF> >0x108 TIF>Found SWD-DP with ID 0x2BA01477
 >0x0D TIF> >0x21 TIF> >0x0D TIF> >0x28 TIF> >0x0D TIF> >0x28 TIF> >0x0D TIF> >0x21 TIF> >0x0D TIF> >0x28 TIF> >0x0D TIF> >0x21 TIF> >0x0D TIF> >0x21 TIF> >0x0D TIF> >0x21 TIF> >0x0D TIF> >0x21 TIF> >0x0D TIF> >0x28 TIF> >0x0D TIF> >0x28 TIF> >0x0D TIF> >0x21 TIF> >0x0D TIF> >0x28 TIF> >0x0D TIF> >0x28 TIF> >0x0D TIF> >0x28 TIF> >0x0D TIF> >0x21 TIF> >0x0D TIF> >0x21 TIF> >0x0D TIF> >0x28 TIF> >0x0D TIF> >0x21 TIF> >0x0D TIF> >0x21 TIF>Found Cortex-M4 r0p1, Little endian.
 -- CPU_WriteMem(4 bytes @ 0xE0002000) -- CPU_ReadMem(4 bytes @ 0xE000EDF0) -- CPU_WriteMem(4 bytes @ 0xE000EDF0) -- CPU_ReadMem(4 bytes @ 0xE0002000)FPUnit: 6 code (BP) slots and 2 literal slots -- CPU_ReadMem(4 bytes @ 0xE000EDFC) -- CPU_WriteMem(4 bytes @ 0xE000EDFC) -- CPU_ReadMem(4 bytes @ 0xE0001000) -- CPU_WriteMem(4 bytes @ 0xE0001000) -- CPU_ReadMem(4 bytes @ 0xE000ED88) -- CPU_WriteMem(4 bytes @ 0xE000ED88) -- CPU_ReadMem(4 bytes @ 0xE000ED88) -- CPU_WriteMem(4 bytes @ 0xE000ED88)
 -- CPU_ReadMem(4 bytes @ 0xE00FF010)TPIU fitted. -- CPU_ReadMem(4 bytes @ 0xE00FF014)ETM fitted. -- CPU_ReadMem(4 bytes @ 0xE00FF018) >0x0D TIF> >0x21 TIF>  returns 0x2BA01477 (0051ms, 0648ms total)
T1F24 000:715 JLINK_GetDebugInfo(0x100) -- Value=0xE00FF003  returns 0x00 (0000ms, 0648ms total)
T1F24 000:717 JLINK_ReadMem (0xE00FFFF0, 0x0010 Bytes, ...) -- CPU is running -- CPU_ReadMem(16 bytes @ 0xE00FFFF0) - Data: 0D 00 00 00 10 00 00 00 05 00 00 00 B1 00 00 00  returns 0x00 (0001ms, 0649ms total)
T1F24 000:718 JLINK_ReadMem (0xE00FFFD0, 0x0020 Bytes, ...) -- CPU is running -- CPU_ReadMem(32 bytes @ 0xE00FFFD0) - Data: 00 00 00 00 00 00 00 00 00 00 00 00 00 00 00 00 ...  returns 0x00 (0001ms, 0650ms total)
T1F24 000:719 JLINK_ReadMem (0xE00FF000, 0x0018 Bytes, ...) -- CPU is running -- CPU_ReadMem(24 bytes @ 0xE00FF000) - Data: 03 F0 F0 FF 03 20 F0 FF 03 30 F0 FF 03 10 F0 FF ...  returns 0x00 (0001ms, 0651ms total)
T1F24 000:720 JLINK_ReadMemU32(0xE000ED00, 0x0001 Items, ...) -- CPU is running -- CPU_ReadMem(4 bytes @ 0xE000ED00) - Data: 41 C2 0F 41  returns 0x01 (0000ms, 0651ms total)
T1F24 000:720 JLINK_ReadMemU32(0xE000EF40, 0x0001 Items, ...) -- CPU is running -- CPU_ReadMem(4 bytes @ 0xE000EF40) - Data: 21 00 11 10  returns 0x01 (0001ms, 0652ms total)
T1F24 000:721 JLINK_ReadMemU32(0xE000EF44, 0x0001 Items, ...) -- CPU is running -- CPU_ReadMem(4 bytes @ 0xE000EF44) - Data: 11 00 00 11  returns 0x01 (0000ms, 0652ms total)
T1F24 000:721 JLINK_SetResetType(JLINKARM_RESET_TYPE_NORMAL)  returns JLINKARM_RESET_TYPE_NORMAL (0000ms, 0652ms total)
T1F24 000:721 JLINK_Reset() -- CPU is running -- CPU_WriteMem(4 bytes @ 0xE000EDF0) -- CPU is running -- CPU_WriteMem(4 bytes @ 0xE000EDFC) >0x35 TIF> -- CPU is running -- CPU_WriteMem(4 bytes @ 0xE000ED0C) -- CPU is running -- CPU_ReadMem(4 bytes @ 0xE000EDF0) -- CPU is running -- CPU_ReadMem(4 bytes @ 0xE000EDF0) -- CPU is running -- CPU_WriteMem(4 bytes @ 0xE000EDF0) -- CPU is running -- CPU_WriteMem(4 bytes @ 0xE000EDFC) -- CPU is running -- CPU_ReadMem(4 bytes @ 0xE000EDF0)
 -- CPU_WriteMem(4 bytes @ 0xE0002000) -- CPU_ReadMem(4 bytes @ 0xE000EDFC) -- CPU_ReadMem(4 bytes @ 0xE0001000) (0017ms, 0669ms total)
T1F24 000:738 JLINK_Halt()  returns 0x00 (0000ms, 0669ms total)
T1F24 000:738 JLINK_IsHalted()  returns TRUE (0000ms, 0669ms total)
T1F24 000:738 JLINK_ReadMemU32(0xE000EDF0, 0x0001 Items, ...) -- CPU_ReadMem(4 bytes @ 0xE000EDF0) - Data: 03 00 03 00  returns 0x01 (0001ms, 0670ms total)
T1F24 000:739 JLINK_WriteU32(0xE000EDF0, 0xA05F0003) -- CPU_WriteMem(4 bytes @ 0xE000EDF0)  returns 0x00 (0001ms, 0671ms total)
T1F24 000:740 JLINK_WriteU32(0xE000EDFC, 0x01000000) -- CPU_WriteMem(4 bytes @ 0xE000EDFC)  returns 0x00 (0000ms, 0671ms total)
T1F24 000:748 JLINK_GetHWStatus(...)  returns 0x00 (0000ms, 0671ms total)
T1F24 000:753 JLINK_GetNumBPUnits(Type = 0xFFFFFF00)  returns 0x06 (0001ms, 0672ms total)
T1F24 000:754 JLINK_GetNumBPUnits(Type = 0xF0)  returns 0x2000 (0000ms, 0672ms total)
T1F24 000:754 JLINK_GetNumWPUnits()  returns 0x04 (0000ms, 0672ms total)
T1F24 000:759 JLINK_GetSpeed()  returns 0x7D0 (0000ms, 0672ms total)
T1F24 000:762 JLINK_ReadMemU32(0xE000E004, 0x0001 Items, ...) -- CPU_ReadMem(4 bytes @ 0xE000E004) - Data: 02 00 00 00  returns 0x01 (0000ms, 0672ms total)
T1F24 000:762 JLINK_ReadMemU32(0xE000E004, 0x0001 Items, ...) -- CPU_ReadMem(4 bytes @ 0xE000E004) - Data: 02 00 00 00  returns 0x01 (0001ms, 0673ms total)
T1F24 000:763 JLINK_WriteMem(0xE0001000, 0x001C Bytes, ...) - Data: 01 00 00 00 00 00 00 00 00 00 00 00 00 00 00 00 ... -- CPU_WriteMem(28 bytes @ 0xE0001000)  returns 0x1C (0001ms, 0674ms total)
T1F24 000:764 JLINK_ReadMem (0xE0001000, 0x001C Bytes, ...) -- CPU_ReadMem(28 bytes @ 0xE0001000) - Data: 01 00 00 40 00 00 00 00 00 00 00 00 00 00 00 00 ...  returns 0x00 (0001ms, 0675ms total)
T1F24 000:765 JLINK_Halt()  returns 0x00 (0000ms, 0675ms total)
T1F24 000:765 JLINK_IsHalted()  returns TRUE (0000ms, 0675ms total)
T1F24 000:783 JLINK_WriteMem(0x20000000, 0x0180 Bytes, ...) - Data: 00 BE 0A E0 0D 78 2D 06 68 40 08 24 40 00 00 D3 ... -- CPU_WriteMem(384 bytes @ 0x20000000)  returns 0x180 (0004ms, 0679ms total)
T1F24 000:787 JLINK_WriteReg(R0, 0x08000000)  returns 0x00 (0000ms, 0679ms total)
T1F24 000:787 JLINK_WriteReg(R1, 0x017D7840)  returns 0x00 (0000ms, 0679ms total)
T1F24 000:787 JLINK_WriteReg(R2, 0x00000001)  returns 0x00 (0000ms, 0679ms total)
T1F24 000:787 JLINK_WriteReg(R3, 0x00000000)  returns 0x00 (0000ms, 0679ms total)
T1F24 000:787 JLINK_WriteReg(R4, 0x00000000)  returns 0x00 (0000ms, 0679ms total)
T1F24 000:787 JLINK_WriteReg(R5, 0x00000000)  returns 0x00 (0000ms, 0679ms total)
T1F24 000:787 JLINK_WriteReg(R6, 0x00000000)  returns 0x00 (0000ms, 0679ms total)
T1F24 000:787 JLINK_WriteReg(R7, 0x00000000)  returns 0x00 (0000ms, 0679ms total)
T1F24 000:787 JLINK_WriteReg(R8, 0x00000000)  returns 0x00 (0000ms, 0679ms total)
T1F24 000:787 JLINK_WriteReg(R9, 0x2000017C)  returns 0x00 (0000ms, 0679ms total)
T1F24 000:787 JLINK_WriteReg(R10, 0x00000000)  returns 0x00 (0000ms, 0679ms total)
T1F24 000:787 JLINK_WriteReg(R11, 0x00000000)  returns 0x00 (0000ms, 0679ms total)
T1F24 000:787 JLINK_WriteReg(R12, 0x00000000)  returns 0x00 (0000ms, 0679ms total)
T1F24 000:787 JLINK_WriteReg(R13 (SP), 0x20000800)  returns 0x00 (0000ms, 0679ms total)
T1F24 000:787 JLINK_WriteReg(R14, 0x20000001)  returns 0x00 (0000ms, 0679ms total)
T1F24 000:787 JLINK_WriteReg(R15 (PC), 0x20000054)  returns 0x00 (0000ms, 0679ms total)
T1F24 000:787 JLINK_WriteReg(XPSR, 0x01000000)  returns 0x00 (0000ms, 0679ms total)
T1F24 000:787 JLINK_WriteReg(MSP, 0x20000800)  returns 0x00 (0000ms, 0679ms total)
T1F24 000:787 JLINK_WriteReg(PSP, 0x20000800)  returns 0x00 (0000ms, 0679ms total)
T1F24 000:787 JLINK_WriteReg(CFBP, 0x00000000)  returns 0x00 (0000ms, 0679ms total)
T1F24 000:787 JLINK_SetBPEx(Addr = 0x20000000, Type = 0xFFFFFFF2) -- CPU_ReadMem(2 bytes @ 0x20000000)  returns 0x00000001 (0000ms, 0679ms total)
T1F24 000:787 JLINK_Go() -- CPU_WriteMem(2 bytes @ 0x20000000) -- CPU_WriteMem(4 bytes @ 0xE0002008) -- CPU_WriteMem(4 bytes @ 0xE000200C) -- CPU_WriteMem(4 bytes @ 0xE0002010) -- CPU_WriteMem(4 bytes @ 0xE0002014) -- CPU_WriteMem(4 bytes @ 0xE0002018) -- CPU_WriteMem(4 bytes @ 0xE000201C) -- CPU_WriteMem(4 bytes @ 0xE0001004) (0006ms, 0685ms total)
T1F24 000:793 JLINK_IsHalted() -- CPU_ReadMem(2 bytes @ 0x20000000)  returns TRUE (0003ms, 0688ms total)
T1F24 000:796 JLINK_ReadReg(R15 (PC))  returns 0x20000000 (0000ms, 0685ms total)
T1F24 000:796 JLINK_ClrBPEx(BPHandle = 0x00000001)  returns 0x00 (0000ms, 0685ms total)
T1F24 000:796 JLINK_ReadReg(R0)  returns 0x00000000 (0000ms, 0685ms total)
T1F24 000:796 JLINK_WriteReg(R0, 0x08000000)  returns 0x00 (0000ms, 0685ms total)
T1F24 000:796 JLINK_WriteReg(R1, 0x00004000)  returns 0x00 (0000ms, 0685ms total)
T1F24 000:796 JLINK_WriteReg(R2, 0x000000FF)  returns 0x00 (0000ms, 0685ms total)
T1F24 000:796 JLINK_WriteReg(R3, 0x00000000)  returns 0x00 (0000ms, 0685ms total)
T1F24 000:796 JLINK_WriteReg(R4, 0x00000000)  returns 0x00 (0000ms, 0685ms total)
T1F24 000:796 JLINK_WriteReg(R5, 0x00000000)  returns 0x00 (0000ms, 0685ms total)
T1F24 000:796 JLINK_WriteReg(R6, 0x00000000)  returns 0x00 (0000ms, 0685ms total)
T1F24 000:796 JLINK_WriteReg(R7, 0x00000000)  returns 0x00 (0000ms, 0685ms total)
T1F24 000:796 JLINK_WriteReg(R8, 0x00000000)  returns 0x00 (0000ms, 0685ms total)
T1F24 000:796 JLINK_WriteReg(R9, 0x2000017C)  returns 0x00 (0000ms, 0685ms total)
T1F24 000:796 JLINK_WriteReg(R10, 0x00000000)  returns 0x00 (0000ms, 0685ms total)
T1F24 000:796 JLINK_WriteReg(R11, 0x00000000)  returns 0x00 (0000ms, 0685ms total)
T1F24 000:796 JLINK_WriteReg(R12, 0x00000000)  returns 0x00 (0000ms, 0685ms total)
T1F24 000:796 JLINK_WriteReg(R13 (SP), 0x20000800)  returns 0x00 (0000ms, 0685ms total)
T1F24 000:796 JLINK_WriteReg(R14, 0x20000001)  returns 0x00 (0000ms, 0685ms total)
T1F24 000:796 JLINK_WriteReg(R15 (PC), 0x20000020)  returns 0x00 (0000ms, 0685ms total)
T1F24 000:796 JLINK_WriteReg(XPSR, 0x01000000)  returns 0x00 (0000ms, 0685ms total)
T1F24 000:796 JLINK_WriteReg(MSP, 0x20000800)  returns 0x00 (0000ms, 0685ms total)
T1F24 000:796 JLINK_WriteReg(PSP, 0x20000800)  returns 0x00 (0000ms, 0685ms total)
T1F24 000:796 JLINK_WriteReg(CFBP, 0x00000000)  returns 0x00 (0000ms, 0685ms total)
T1F24 000:796 JLINK_SetBPEx(Addr = 0x20000000, Type = 0xFFFFFFF2)  returns 0x00000002 (0000ms, 0685ms total)
T1F24 000:796 JLINK_Go() (0002ms, 0687ms total)
T1F24 000:798 JLINK_IsHalted()  returns FALSE (0000ms, 0687ms total)
T1F24 000:848 JLINK_IsHalted() -- CPU_ReadMem(2 bytes @ 0x20000000)  returns TRUE (0003ms, 0690ms total)
T1F24 000:851 JLINK_ReadReg(R15 (PC))  returns 0x20000000 (0000ms, 0687ms total)
T1F24 000:851 JLINK_ClrBPEx(BPHandle = 0x00000002)  returns 0x00 (0000ms, 0687ms total)
T1F24 000:851 JLINK_ReadReg(R0)  returns 0x00000000 (0000ms, 0687ms total)
T1F24 000:852 JLINK_WriteReg(R0, 0x00000001)  returns 0x00 (0000ms, 0687ms total)
T1F24 000:852 JLINK_WriteReg(R1, 0x00004000)  returns 0x00 (0000ms, 0687ms total)
T1F24 000:852 JLINK_WriteReg(R2, 0x000000FF)  returns 0x00 (0000ms, 0687ms total)
T1F24 000:852 JLINK_WriteReg(R3, 0x00000000)  returns 0x00 (0000ms, 0687ms total)
T1F24 000:852 JLINK_WriteReg(R4, 0x00000000)  returns 0x00 (0000ms, 0687ms total)
T1F24 000:852 JLINK_WriteReg(R5, 0x00000000)  returns 0x00 (0000ms, 0687ms total)
T1F24 000:852 JLINK_WriteReg(R6, 0x00000000)  returns 0x00 (0000ms, 0687ms total)
T1F24 000:852 JLINK_WriteReg(R7, 0x00000000)  returns 0x00 (0000ms, 0687ms total)
T1F24 000:852 JLINK_WriteReg(R8, 0x00000000)  returns 0x00 (0000ms, 0687ms total)
T1F24 000:852 JLINK_WriteReg(R9, 0x2000017C)  returns 0x00 (0000ms, 0687ms total)
T1F24 000:852 JLINK_WriteReg(R10, 0x00000000)  returns 0x00 (0000ms, 0687ms total)
T1F24 000:852 JLINK_WriteReg(R11, 0x00000000)  returns 0x00 (0000ms, 0687ms total)
T1F24 000:852 JLINK_WriteReg(R12, 0x00000000)  returns 0x00 (0000ms, 0687ms total)
T1F24 000:852 JLINK_WriteReg(R13 (SP), 0x20000800)  returns 0x00 (0000ms, 0687ms total)
T1F24 000:852 JLINK_WriteReg(R14, 0x20000001)  returns 0x00 (0000ms, 0687ms total)
T1F24 000:852 JLINK_WriteReg(R15 (PC), 0x20000082)  returns 0x00 (0000ms, 0687ms total)
T1F24 000:852 JLINK_WriteReg(XPSR, 0x01000000)  returns 0x00 (0000ms, 0687ms total)
T1F24 000:852 JLINK_WriteReg(MSP, 0x20000800)  returns 0x00 (0000ms, 0687ms total)
T1F24 000:852 JLINK_WriteReg(PSP, 0x20000800)  returns 0x00 (0000ms, 0687ms total)
T1F24 000:852 JLINK_WriteReg(CFBP, 0x00000000)  returns 0x00 (0000ms, 0687ms total)
T1F24 000:852 JLINK_SetBPEx(Addr = 0x20000000, Type = 0xFFFFFFF2)  returns 0x00000003 (0000ms, 0687ms total)
T1F24 000:852 JLINK_Go() (0002ms, 0689ms total)
T1F24 000:854 JLINK_IsHalted() -- CPU_ReadMem(2 bytes @ 0x20000000)  returns TRUE (0004ms, 0693ms total)
T1F24 000:858 JLINK_ReadReg(R15 (PC))  returns 0x20000000 (0000ms, 0689ms total)
T1F24 000:858 JLINK_ClrBPEx(BPHandle = 0x00000003)  returns 0x00 (0000ms, 0689ms total)
T1F24 000:858 JLINK_ReadReg(R0)  returns 0x00000000 (0000ms, 0689ms total)
T1F24 000:917 JLINK_WriteMem(0x20000000, 0x0180 Bytes, ...) - Data: 00 BE 0A E0 0D 78 2D 06 68 40 08 24 40 00 00 D3 ... -- CPU_WriteMem(384 bytes @ 0x20000000)  returns 0x180 (0004ms, 0693ms total)
T1F24 000:921 JLINK_WriteReg(R0, 0x08000000)  returns 0x00 (0000ms, 0693ms total)
T1F24 000:921 JLINK_WriteReg(R1, 0x017D7840)  returns 0x00 (0000ms, 0693ms total)
T1F24 000:921 JLINK_WriteReg(R2, 0x00000002)  returns 0x00 (0000ms, 0693ms total)
T1F24 000:921 JLINK_WriteReg(R3, 0x00000000)  returns 0x00 (0000ms, 0693ms total)
T1F24 000:921 JLINK_WriteReg(R4, 0x00000000)  returns 0x00 (0000ms, 0693ms total)
T1F24 000:921 JLINK_WriteReg(R5, 0x00000000)  returns 0x00 (0000ms, 0693ms total)
T1F24 000:921 JLINK_WriteReg(R6, 0x00000000)  returns 0x00 (0000ms, 0693ms total)
T1F24 000:921 JLINK_WriteReg(R7, 0x00000000)  returns 0x00 (0000ms, 0693ms total)
T1F24 000:921 JLINK_WriteReg(R8, 0x00000000)  returns 0x00 (0000ms, 0693ms total)
T1F24 000:921 JLINK_WriteReg(R9, 0x2000017C)  returns 0x00 (0000ms, 0693ms total)
T1F24 000:921 JLINK_WriteReg(R10, 0x00000000)  returns 0x00 (0000ms, 0693ms total)
T1F24 000:921 JLINK_WriteReg(R11, 0x00000000)  returns 0x00 (0000ms, 0693ms total)
T1F24 000:921 JLINK_WriteReg(R12, 0x00000000)  returns 0x00 (0000ms, 0693ms total)
T1F24 000:921 JLINK_WriteReg(R13 (SP), 0x20000800)  returns 0x00 (0001ms, 0694ms total)
T1F24 000:922 JLINK_WriteReg(R14, 0x20000001)  returns 0x00 (0000ms, 0694ms total)
T1F24 000:922 JLINK_WriteReg(R15 (PC), 0x20000054)  returns 0x00 (0000ms, 0694ms total)
T1F24 000:922 JLINK_WriteReg(XPSR, 0x01000000)  returns 0x00 (0000ms, 0694ms total)
T1F24 000:922 JLINK_WriteReg(MSP, 0x20000800)  returns 0x00 (0000ms, 0694ms total)
T1F24 000:922 JLINK_WriteReg(PSP, 0x20000800)  returns 0x00 (0000ms, 0694ms total)
T1F24 000:922 JLINK_WriteReg(CFBP, 0x00000000)  returns 0x00 (0000ms, 0694ms total)
T1F24 000:922 JLINK_SetBPEx(Addr = 0x20000000, Type = 0xFFFFFFF2) -- CPU_ReadMem(2 bytes @ 0x20000000)  returns 0x00000004 (0001ms, 0695ms total)
T1F24 000:923 JLINK_Go() -- CPU_WriteMem(2 bytes @ 0x20000000) (0002ms, 0697ms total)
T1F24 000:925 JLINK_IsHalted() -- CPU_ReadMem(2 bytes @ 0x20000000)  returns TRUE (0004ms, 0701ms total)
T1F24 000:929 JLINK_ReadReg(R15 (PC))  returns 0x20000000 (0000ms, 0697ms total)
T1F24 000:929 JLINK_ClrBPEx(BPHandle = 0x00000004)  returns 0x00 (0000ms, 0697ms total)
T1F24 000:929 JLINK_ReadReg(R0)  returns 0x00000000 (0000ms, 0697ms total)
T1F24 000:930 JLINK_WriteMem(0x20000180, 0x0400 Bytes, ...) - Data: A0 06 00 20 29 02 00 08 31 02 00 08 33 02 00 08 ... -- CPU_WriteMem(1024 bytes @ 0x20000180)  returns 0x400 (0008ms, 0705ms total)
T1F24 000:938 JLINK_WriteReg(R0, 0x08000000)  returns 0x00 (0000ms, 0705ms total)
T1F24 000:938 JLINK_WriteReg(R1, 0x00000400)  returns 0x00 (0000ms, 0705ms total)
T1F24 000:938 JLINK_WriteReg(R2, 0x20000180)  returns 0x00 (0000ms, 0705ms total)
T1F24 000:938 JLINK_WriteReg(R3, 0x00000000)  returns 0x00 (0000ms, 0705ms total)
T1F24 000:938 JLINK_WriteReg(R4, 0x00000000)  returns 0x00 (0000ms, 0705ms total)
T1F24 000:938 JLINK_WriteReg(R5, 0x00000000)  returns 0x00 (0000ms, 0705ms total)
T1F24 000:938 JLINK_WriteReg(R6, 0x00000000)  returns 0x00 (0000ms, 0705ms total)
T1F24 000:938 JLINK_WriteReg(R7, 0x00000000)  returns 0x00 (0000ms, 0705ms total)
T1F24 000:938 JLINK_WriteReg(R8, 0x00000000)  returns 0x00 (0000ms, 0705ms total)
T1F24 000:938 JLINK_WriteReg(R9, 0x2000017C)  returns 0x00 (0000ms, 0705ms total)
T1F24 000:938 JLINK_WriteReg(R10, 0x00000000)  returns 0x00 (0000ms, 0705ms total)
T1F24 000:938 JLINK_WriteReg(R11, 0x00000000)  returns 0x00 (0000ms, 0705ms total)
T1F24 000:938 JLINK_WriteReg(R12, 0x00000000)  returns 0x00 (0000ms, 0705ms total)
T1F24 000:938 JLINK_WriteReg(R13 (SP), 0x20000800)  returns 0x00 (0000ms, 0705ms total)
T1F24 000:938 JLINK_WriteReg(R14, 0x20000001)  returns 0x00 (0000ms, 0705ms total)
T1F24 000:938 JLINK_WriteReg(R15 (PC), 0x20000108)  returns 0x00 (0000ms, 0705ms total)
T1F24 000:938 JLINK_WriteReg(XPSR, 0x01000000)  returns 0x00 (0000ms, 0705ms total)
T1F24 000:938 JLINK_WriteReg(MSP, 0x20000800)  returns 0x00 (0000ms, 0705ms total)
T1F24 000:938 JLINK_WriteReg(PSP, 0x20000800)  returns 0x00 (0000ms, 0705ms total)
T1F24 000:939 JLINK_WriteReg(CFBP, 0x00000000)  returns 0x00 (0000ms, 0705ms total)
T1F24 000:939 JLINK_SetBPEx(Addr = 0x20000000, Type = 0xFFFFFFF2)  returns 0x00000005 (0000ms, 0705ms total)
T1F24 000:939 JLINK_Go() (0002ms, 0707ms total)
T1F24 000:941 JLINK_IsHalted()  returns FALSE (0000ms, 0707ms total)
T1F24 000:991 JLINK_IsHalted() -- CPU_ReadMem(2 bytes @ 0x20000000)  returns TRUE (0004ms, 0711ms total)
T1F24 000:995 JLINK_ReadReg(R15 (PC))  returns 0x20000000 (0000ms, 0707ms total)
T1F24 000:995 JLINK_ClrBPEx(BPHandle = 0x00000005)  returns 0x00 (0000ms, 0707ms total)
T1F24 000:995 JLINK_ReadReg(R0)  returns 0x00000000 (0000ms, 0707ms total)
T1F24 000:996 JLINK_WriteMem(0x20000180, 0x0400 Bytes, ...) - Data: 24 68 C4 F3 01 44 64 1C 63 00 B2 FB F3 F4 12 4D ... -- CPU_WriteMem(1024 bytes @ 0x20000180)  returns 0x400 (0008ms, 0715ms total)
T1F24 001:004 JLINK_WriteReg(R0, 0x08000400)  returns 0x00 (0001ms, 0716ms total)
T1F24 001:005 JLINK_WriteReg(R1, 0x00000400)  returns 0x00 (0000ms, 0716ms total)
T1F24 001:005 JLINK_WriteReg(R2, 0x20000180)  returns 0x00 (0000ms, 0716ms total)
T1F24 001:005 JLINK_WriteReg(R3, 0x00000000)  returns 0x00 (0000ms, 0716ms total)
T1F24 001:005 JLINK_WriteReg(R4, 0x00000000)  returns 0x00 (0000ms, 0716ms total)
T1F24 001:005 JLINK_WriteReg(R5, 0x00000000)  returns 0x00 (0000ms, 0716ms total)
T1F24 001:005 JLINK_WriteReg(R6, 0x00000000)  returns 0x00 (0000ms, 0716ms total)
T1F24 001:005 JLINK_WriteReg(R7, 0x00000000)  returns 0x00 (0000ms, 0716ms total)
T1F24 001:005 JLINK_WriteReg(R8, 0x00000000)  returns 0x00 (0000ms, 0716ms total)
T1F24 001:005 JLINK_WriteReg(R9, 0x2000017C)  returns 0x00 (0000ms, 0716ms total)
T1F24 001:005 JLINK_WriteReg(R10, 0x00000000)  returns 0x00 (0000ms, 0716ms total)
T1F24 001:005 JLINK_WriteReg(R11, 0x00000000)  returns 0x00 (0000ms, 0716ms total)
T1F24 001:005 JLINK_WriteReg(R12, 0x00000000)  returns 0x00 (0000ms, 0716ms total)
T1F24 001:005 JLINK_WriteReg(R13 (SP), 0x20000800)  returns 0x00 (0000ms, 0716ms total)
T1F24 001:005 JLINK_WriteReg(R14, 0x20000001)  returns 0x00 (0000ms, 0716ms total)
T1F24 001:005 JLINK_WriteReg(R15 (PC), 0x20000108)  returns 0x00 (0001ms, 0717ms total)
T1F24 001:006 JLINK_WriteReg(XPSR, 0x01000000)  returns 0x00 (0000ms, 0717ms total)
T1F24 001:006 JLINK_WriteReg(MSP, 0x20000800)  returns 0x00 (0000ms, 0717ms total)
T1F24 001:006 JLINK_WriteReg(PSP, 0x20000800)  returns 0x00 (0000ms, 0717ms total)
T1F24 001:006 JLINK_WriteReg(CFBP, 0x00000000)  returns 0x00 (0000ms, 0717ms total)
T1F24 001:006 JLINK_SetBPEx(Addr = 0x20000000, Type = 0xFFFFFFF2)  returns 0x00000006 (0000ms, 0717ms total)
T1F24 001:006 JLINK_Go() (0002ms, 0719ms total)
T1F24 001:008 JLINK_IsHalted()  returns FALSE (0000ms, 0719ms total)
T1F24 001:058 JLINK_IsHalted() -- CPU_ReadMem(2 bytes @ 0x20000000)  returns TRUE (0003ms, 0722ms total)
T1F24 001:061 JLINK_ReadReg(R15 (PC))  returns 0x20000000 (0000ms, 0719ms total)
T1F24 001:061 JLINK_ClrBPEx(BPHandle = 0x00000006)  returns 0x00 (0001ms, 0720ms total)
T1F24 001:062 JLINK_ReadReg(R0)  returns 0x00000000 (0000ms, 0720ms total)
T1F24 001:063 JLINK_WriteMem(0x20000180, 0x0400 Bytes, ...) - Data: 02 00 9D F8 0C 00 8D F8 01 00 02 98 C0 B2 8D F8 ... -- CPU_WriteMem(1024 bytes @ 0x20000180)  returns 0x400 (0008ms, 0728ms total)
T1F24 001:071 JLINK_WriteReg(R0, 0x08000800)  returns 0x00 (0000ms, 0728ms total)
T1F24 001:071 JLINK_WriteReg(R1, 0x00000400)  returns 0x00 (0000ms, 0728ms total)
T1F24 001:071 JLINK_WriteReg(R2, 0x20000180)  returns 0x00 (0000ms, 0728ms total)
T1F24 001:071 JLINK_WriteReg(R3, 0x00000000)  returns 0x00 (0000ms, 0728ms total)
T1F24 001:071 JLINK_WriteReg(R4, 0x00000000)  returns 0x00 (0000ms, 0728ms total)
T1F24 001:071 JLINK_WriteReg(R5, 0x00000000)  returns 0x00 (0000ms, 0728ms total)
T1F24 001:071 JLINK_WriteReg(R6, 0x00000000)  returns 0x00 (0000ms, 0728ms total)
T1F24 001:071 JLINK_WriteReg(R7, 0x00000000)  returns 0x00 (0000ms, 0728ms total)
T1F24 001:071 JLINK_WriteReg(R8, 0x00000000)  returns 0x00 (0000ms, 0728ms total)
T1F24 001:071 JLINK_WriteReg(R9, 0x2000017C)  returns 0x00 (0000ms, 0728ms total)
T1F24 001:071 JLINK_WriteReg(R10, 0x00000000)  returns 0x00 (0000ms, 0728ms total)
T1F24 001:071 JLINK_WriteReg(R11, 0x00000000)  returns 0x00 (0000ms, 0728ms total)
T1F24 001:071 JLINK_WriteReg(R12, 0x00000000)  returns 0x00 (0000ms, 0728ms total)
T1F24 001:071 JLINK_WriteReg(R13 (SP), 0x20000800)  returns 0x00 (0000ms, 0728ms total)
T1F24 001:071 JLINK_WriteReg(R14, 0x20000001)  returns 0x00 (0000ms, 0728ms total)
T1F24 001:071 JLINK_WriteReg(R15 (PC), 0x20000108)  returns 0x00 (0000ms, 0728ms total)
T1F24 001:071 JLINK_WriteReg(XPSR, 0x01000000)  returns 0x00 (0000ms, 0728ms total)
T1F24 001:071 JLINK_WriteReg(MSP, 0x20000800)  returns 0x00 (0000ms, 0728ms total)
T1F24 001:071 JLINK_WriteReg(PSP, 0x20000800)  returns 0x00 (0000ms, 0728ms total)
T1F24 001:071 JLINK_WriteReg(CFBP, 0x00000000)  returns 0x00 (0001ms, 0729ms total)
T1F24 001:072 JLINK_SetBPEx(Addr = 0x20000000, Type = 0xFFFFFFF2)  returns 0x00000007 (0000ms, 0729ms total)
T1F24 001:072 JLINK_Go() (0002ms, 0731ms total)
T1F24 001:074 JLINK_IsHalted()  returns FALSE (0000ms, 0731ms total)
T1F24 001:124 JLINK_IsHalted() -- CPU_ReadMem(2 bytes @ 0x20000000)  returns TRUE (0004ms, 0735ms total)
T1F24 001:128 JLINK_ReadReg(R15 (PC))  returns 0x20000000 (0000ms, 0731ms total)
T1F24 001:128 JLINK_ClrBPEx(BPHandle = 0x00000007)  returns 0x00 (0000ms, 0731ms total)
T1F24 001:128 JLINK_ReadReg(R0)  returns 0x00000000 (0000ms, 0731ms total)
T1F24 001:129 JLINK_WriteMem(0x20000180, 0x0400 Bytes, ...) - Data: 01 09 EA D1 28 05 00 0D 02 D1 28 46 FF F7 51 FF ... -- CPU_WriteMem(1024 bytes @ 0x20000180)  returns 0x400 (0008ms, 0739ms total)
T1F24 001:137 JLINK_WriteReg(R0, 0x08000C00)  returns 0x00 (0000ms, 0739ms total)
T1F24 001:137 JLINK_WriteReg(R1, 0x00000400)  returns 0x00 (0000ms, 0739ms total)
T1F24 001:137 JLINK_WriteReg(R2, 0x20000180)  returns 0x00 (0000ms, 0739ms total)
T1F24 001:137 JLINK_WriteReg(R3, 0x00000000)  returns 0x00 (0000ms, 0739ms total)
T1F24 001:137 JLINK_WriteReg(R4, 0x00000000)  returns 0x00 (0000ms, 0739ms total)
T1F24 001:137 JLINK_WriteReg(R5, 0x00000000)  returns 0x00 (0000ms, 0739ms total)
T1F24 001:137 JLINK_WriteReg(R6, 0x00000000)  returns 0x00 (0000ms, 0739ms total)
T1F24 001:137 JLINK_WriteReg(R7, 0x00000000)  returns 0x00 (0000ms, 0739ms total)
T1F24 001:137 JLINK_WriteReg(R8, 0x00000000)  returns 0x00 (0000ms, 0739ms total)
T1F24 001:137 JLINK_WriteReg(R9, 0x2000017C)  returns 0x00 (0000ms, 0739ms total)
T1F24 001:137 JLINK_WriteReg(R10, 0x00000000)  returns 0x00 (0000ms, 0739ms total)
T1F24 001:137 JLINK_WriteReg(R11, 0x00000000)  returns 0x00 (0000ms, 0739ms total)
T1F24 001:137 JLINK_WriteReg(R12, 0x00000000)  returns 0x00 (0000ms, 0739ms total)
T1F24 001:137 JLINK_WriteReg(R13 (SP), 0x20000800)  returns 0x00 (0001ms, 0740ms total)
T1F24 001:138 JLINK_WriteReg(R14, 0x20000001)  returns 0x00 (0000ms, 0740ms total)
T1F24 001:138 JLINK_WriteReg(R15 (PC), 0x20000108)  returns 0x00 (0000ms, 0740ms total)
T1F24 001:138 JLINK_WriteReg(XPSR, 0x01000000)  returns 0x00 (0000ms, 0740ms total)
T1F24 001:138 JLINK_WriteReg(MSP, 0x20000800)  returns 0x00 (0000ms, 0740ms total)
T1F24 001:138 JLINK_WriteReg(PSP, 0x20000800)  returns 0x00 (0000ms, 0740ms total)
T1F24 001:138 JLINK_WriteReg(CFBP, 0x00000000)  returns 0x00 (0000ms, 0740ms total)
T1F24 001:138 JLINK_SetBPEx(Addr = 0x20000000, Type = 0xFFFFFFF2)  returns 0x00000008 (0000ms, 0740ms total)
T1F24 001:138 JLINK_Go() (0002ms, 0742ms total)
T1F24 001:140 JLINK_IsHalted()  returns FALSE (0001ms, 0743ms total)
T1F24 001:191 JLINK_IsHalted() -- CPU_ReadMem(2 bytes @ 0x20000000)  returns TRUE (0003ms, 0745ms total)
T1F24 001:194 JLINK_ReadReg(R15 (PC))  returns 0x20000000 (0000ms, 0742ms total)
T1F24 001:194 JLINK_ClrBPEx(BPHandle = 0x00000008)  returns 0x00 (0000ms, 0742ms total)
T1F24 001:194 JLINK_ReadReg(R0)  returns 0x00000000 (0000ms, 0742ms total)
T1F24 001:195 JLINK_WriteMem(0x20000180, 0x0400 Bytes, ...) - Data: 4F F6 FF 71 01 60 00 21 01 71 41 71 81 71 C1 71 ... -- CPU_WriteMem(1024 bytes @ 0x20000180)  returns 0x400 (0009ms, 0751ms total)
T1F24 001:204 JLINK_WriteReg(R0, 0x08001000)  returns 0x00 (0000ms, 0751ms total)
T1F24 001:204 JLINK_WriteReg(R1, 0x00000400)  returns 0x00 (0000ms, 0751ms total)
T1F24 001:204 JLINK_WriteReg(R2, 0x20000180)  returns 0x00 (0000ms, 0751ms total)
T1F24 001:204 JLINK_WriteReg(R3, 0x00000000)  returns 0x00 (0000ms, 0751ms total)
T1F24 001:204 JLINK_WriteReg(R4, 0x00000000)  returns 0x00 (0000ms, 0751ms total)
T1F24 001:204 JLINK_WriteReg(R5, 0x00000000)  returns 0x00 (0000ms, 0751ms total)
T1F24 001:204 JLINK_WriteReg(R6, 0x00000000)  returns 0x00 (0000ms, 0751ms total)
T1F24 001:204 JLINK_WriteReg(R7, 0x00000000)  returns 0x00 (0000ms, 0751ms total)
T1F24 001:204 JLINK_WriteReg(R8, 0x00000000)  returns 0x00 (0000ms, 0751ms total)
T1F24 001:204 JLINK_WriteReg(R9, 0x2000017C)  returns 0x00 (0000ms, 0751ms total)
T1F24 001:204 JLINK_WriteReg(R10, 0x00000000)  returns 0x00 (0000ms, 0751ms total)
T1F24 001:204 JLINK_WriteReg(R11, 0x00000000)  returns 0x00 (0000ms, 0751ms total)
T1F24 001:204 JLINK_WriteReg(R12, 0x00000000)  returns 0x00 (0000ms, 0751ms total)
T1F24 001:204 JLINK_WriteReg(R13 (SP), 0x20000800)  returns 0x00 (0000ms, 0751ms total)
T1F24 001:204 JLINK_WriteReg(R14, 0x20000001)  returns 0x00 (0000ms, 0751ms total)
T1F24 001:204 JLINK_WriteReg(R15 (PC), 0x20000108)  returns 0x00 (0000ms, 0751ms total)
T1F24 001:204 JLINK_WriteReg(XPSR, 0x01000000)  returns 0x00 (0000ms, 0751ms total)
T1F24 001:204 JLINK_WriteReg(MSP, 0x20000800)  returns 0x00 (0000ms, 0751ms total)
T1F24 001:204 JLINK_WriteReg(PSP, 0x20000800)  returns 0x00 (0001ms, 0752ms total)
T1F24 001:205 JLINK_WriteReg(CFBP, 0x00000000)  returns 0x00 (0000ms, 0752ms total)
T1F24 001:205 JLINK_SetBPEx(Addr = 0x20000000, Type = 0xFFFFFFF2)  returns 0x00000009 (0000ms, 0752ms total)
T1F24 001:205 JLINK_Go() (0002ms, 0754ms total)
T1F24 001:207 JLINK_IsHalted()  returns FALSE (0000ms, 0754ms total)
T1F24 001:257 JLINK_IsHalted() -- CPU_ReadMem(2 bytes @ 0x20000000)  returns TRUE (0003ms, 0757ms total)
T1F24 001:260 JLINK_ReadReg(R15 (PC))  returns 0x20000000 (0000ms, 0754ms total)
T1F24 001:260 JLINK_ClrBPEx(BPHandle = 0x00000009)  returns 0x00 (0001ms, 0755ms total)
T1F24 001:261 JLINK_ReadReg(R0)  returns 0x00000000 (0000ms, 0755ms total)
T1F24 001:262 JLINK_WriteMem(0x20000180, 0x0400 Bytes, ...) - Data: 70 47 8A 48 08 30 00 68 00 F0 0C 00 70 47 01 46 ... -- CPU_WriteMem(1024 bytes @ 0x20000180)  returns 0x400 (0008ms, 0763ms total)
T1F24 001:270 JLINK_WriteReg(R0, 0x08001400)  returns 0x00 (0000ms, 0763ms total)
T1F24 001:270 JLINK_WriteReg(R1, 0x00000400)  returns 0x00 (0000ms, 0763ms total)
T1F24 001:270 JLINK_WriteReg(R2, 0x20000180)  returns 0x00 (0000ms, 0763ms total)
T1F24 001:270 JLINK_WriteReg(R3, 0x00000000)  returns 0x00 (0000ms, 0763ms total)
T1F24 001:270 JLINK_WriteReg(R4, 0x00000000)  returns 0x00 (0000ms, 0763ms total)
T1F24 001:270 JLINK_WriteReg(R5, 0x00000000)  returns 0x00 (0000ms, 0763ms total)
T1F24 001:270 JLINK_WriteReg(R6, 0x00000000)  returns 0x00 (0000ms, 0763ms total)
T1F24 001:270 JLINK_WriteReg(R7, 0x00000000)  returns 0x00 (0000ms, 0763ms total)
T1F24 001:270 JLINK_WriteReg(R8, 0x00000000)  returns 0x00 (0000ms, 0763ms total)
T1F24 001:270 JLINK_WriteReg(R9, 0x2000017C)  returns 0x00 (0000ms, 0763ms total)
T1F24 001:270 JLINK_WriteReg(R10, 0x00000000)  returns 0x00 (0000ms, 0763ms total)
T1F24 001:270 JLINK_WriteReg(R11, 0x00000000)  returns 0x00 (0000ms, 0763ms total)
T1F24 001:271 JLINK_WriteReg(R12, 0x00000000)  returns 0x00 (0000ms, 0764ms total)
T1F24 001:271 JLINK_WriteReg(R13 (SP), 0x20000800)  returns 0x00 (0000ms, 0764ms total)
T1F24 001:271 JLINK_WriteReg(R14, 0x20000001)  returns 0x00 (0000ms, 0764ms total)
T1F24 001:271 JLINK_WriteReg(R15 (PC), 0x20000108)  returns 0x00 (0000ms, 0764ms total)
T1F24 001:271 JLINK_WriteReg(XPSR, 0x01000000)  returns 0x00 (0000ms, 0764ms total)
T1F24 001:271 JLINK_WriteReg(MSP, 0x20000800)  returns 0x00 (0000ms, 0764ms total)
T1F24 001:271 JLINK_WriteReg(PSP, 0x20000800)  returns 0x00 (0000ms, 0764ms total)
T1F24 001:271 JLINK_WriteReg(CFBP, 0x00000000)  returns 0x00 (0000ms, 0764ms total)
T1F24 001:271 JLINK_SetBPEx(Addr = 0x20000000, Type = 0xFFFFFFF2)  returns 0x0000000A (0000ms, 0764ms total)
T1F24 001:271 JLINK_Go() (0002ms, 0766ms total)
T1F24 001:273 JLINK_IsHalted()  returns FALSE (0000ms, 0766ms total)
T1F24 001:323 JLINK_IsHalted() -- CPU_ReadMem(2 bytes @ 0x20000000)  returns TRUE (0004ms, 0770ms total)
T1F24 001:327 JLINK_ReadReg(R15 (PC))  returns 0x20000000 (0000ms, 0766ms total)
T1F24 001:327 JLINK_ClrBPEx(BPHandle = 0x0000000A)  returns 0x00 (0000ms, 0766ms total)
T1F24 001:327 JLINK_ReadReg(R0)  returns 0x00000000 (0000ms, 0766ms total)
T1F24 001:328 JLINK_WriteMem(0x20000180, 0x0400 Bytes, ...) - Data: 2C 32 12 68 82 43 17 4B 2C 33 1A 60 70 47 39 B1 ... -- CPU_WriteMem(1024 bytes @ 0x20000180)  returns 0x400 (0008ms, 0774ms total)
T1F24 001:336 JLINK_WriteReg(R0, 0x08001800)  returns 0x00 (0000ms, 0774ms total)
T1F24 001:336 JLINK_WriteReg(R1, 0x00000400)  returns 0x00 (0000ms, 0774ms total)
T1F24 001:336 JLINK_WriteReg(R2, 0x20000180)  returns 0x00 (0000ms, 0774ms total)
T1F24 001:336 JLINK_WriteReg(R3, 0x00000000)  returns 0x00 (0000ms, 0774ms total)
T1F24 001:336 JLINK_WriteReg(R4, 0x00000000)  returns 0x00 (0000ms, 0774ms total)
T1F24 001:336 JLINK_WriteReg(R5, 0x00000000)  returns 0x00 (0000ms, 0774ms total)
T1F24 001:336 JLINK_WriteReg(R6, 0x00000000)  returns 0x00 (0001ms, 0775ms total)
T1F24 001:337 JLINK_WriteReg(R7, 0x00000000)  returns 0x00 (0000ms, 0775ms total)
T1F24 001:337 JLINK_WriteReg(R8, 0x00000000)  returns 0x00 (0000ms, 0775ms total)
T1F24 001:337 JLINK_WriteReg(R9, 0x2000017C)  returns 0x00 (0000ms, 0775ms total)
T1F24 001:337 JLINK_WriteReg(R10, 0x00000000)  returns 0x00 (0000ms, 0775ms total)
T1F24 001:337 JLINK_WriteReg(R11, 0x00000000)  returns 0x00 (0000ms, 0775ms total)
T1F24 001:337 JLINK_WriteReg(R12, 0x00000000)  returns 0x00 (0000ms, 0775ms total)
T1F24 001:337 JLINK_WriteReg(R13 (SP), 0x20000800)  returns 0x00 (0000ms, 0775ms total)
T1F24 001:337 JLINK_WriteReg(R14, 0x20000001)  returns 0x00 (0000ms, 0775ms total)
T1F24 001:337 JLINK_WriteReg(R15 (PC), 0x20000108)  returns 0x00 (0000ms, 0775ms total)
T1F24 001:337 JLINK_WriteReg(XPSR, 0x01000000)  returns 0x00 (0000ms, 0775ms total)
T1F24 001:337 JLINK_WriteReg(MSP, 0x20000800)  returns 0x00 (0000ms, 0775ms total)
T1F24 001:337 JLINK_WriteReg(PSP, 0x20000800)  returns 0x00 (0000ms, 0775ms total)
T1F24 001:337 JLINK_WriteReg(CFBP, 0x00000000)  returns 0x00 (0000ms, 0775ms total)
T1F24 001:337 JLINK_SetBPEx(Addr = 0x20000000, Type = 0xFFFFFFF2)  returns 0x0000000B (0000ms, 0775ms total)
T1F24 001:338 JLINK_Go() (0001ms, 0777ms total)
T1F24 001:340 JLINK_IsHalted()  returns FALSE (0000ms, 0778ms total)
T1F24 001:390 JLINK_IsHalted() -- CPU_ReadMem(2 bytes @ 0x20000000)  returns TRUE (0003ms, 0781ms total)
T1F24 001:393 JLINK_ReadReg(R15 (PC))  returns 0x20000000 (0000ms, 0778ms total)
T1F24 001:393 JLINK_ClrBPEx(BPHandle = 0x0000000B)  returns 0x00 (0001ms, 0779ms total)
T1F24 001:394 JLINK_ReadReg(R0)  returns 0x00000000 (0000ms, 0779ms total)
T1F24 001:394 JLINK_WriteMem(0x20000180, 0x0400 Bytes, ...) - Data: 20 70 C5 F3 06 20 60 70 05 F0 7F 00 A0 70 05 F4 ... -- CPU_WriteMem(1024 bytes @ 0x20000180)  returns 0x400 (0009ms, 0788ms total)
T1F24 001:403 JLINK_WriteReg(R0, 0x08001C00)  returns 0x00 (0000ms, 0788ms total)
T1F24 001:403 JLINK_WriteReg(R1, 0x00000400)  returns 0x00 (0000ms, 0788ms total)
T1F24 001:403 JLINK_WriteReg(R2, 0x20000180)  returns 0x00 (0000ms, 0788ms total)
T1F24 001:403 JLINK_WriteReg(R3, 0x00000000)  returns 0x00 (0000ms, 0788ms total)
T1F24 001:403 JLINK_WriteReg(R4, 0x00000000)  returns 0x00 (0000ms, 0788ms total)
T1F24 001:403 JLINK_WriteReg(R5, 0x00000000)  returns 0x00 (0000ms, 0788ms total)
T1F24 001:403 JLINK_WriteReg(R6, 0x00000000)  returns 0x00 (0000ms, 0788ms total)
T1F24 001:403 JLINK_WriteReg(R7, 0x00000000)  returns 0x00 (0000ms, 0788ms total)
T1F24 001:403 JLINK_WriteReg(R8, 0x00000000)  returns 0x00 (0000ms, 0788ms total)
T1F24 001:403 JLINK_WriteReg(R9, 0x2000017C)  returns 0x00 (0000ms, 0788ms total)
T1F24 001:403 JLINK_WriteReg(R10, 0x00000000)  returns 0x00 (0000ms, 0788ms total)
T1F24 001:403 JLINK_WriteReg(R11, 0x00000000)  returns 0x00 (0000ms, 0788ms total)
T1F24 001:403 JLINK_WriteReg(R12, 0x00000000)  returns 0x00 (0000ms, 0788ms total)
T1F24 001:403 JLINK_WriteReg(R13 (SP), 0x20000800)  returns 0x00 (0000ms, 0788ms total)
T1F24 001:403 JLINK_WriteReg(R14, 0x20000001)  returns 0x00 (0000ms, 0788ms total)
T1F24 001:403 JLINK_WriteReg(R15 (PC), 0x20000108)  returns 0x00 (0000ms, 0788ms total)
T1F24 001:403 JLINK_WriteReg(XPSR, 0x01000000)  returns 0x00 (0000ms, 0788ms total)
T1F24 001:403 JLINK_WriteReg(MSP, 0x20000800)  returns 0x00 (0000ms, 0788ms total)
T1F24 001:403 JLINK_WriteReg(PSP, 0x20000800)  returns 0x00 (0000ms, 0788ms total)
T1F24 001:404 JLINK_WriteReg(CFBP, 0x00000000)  returns 0x00 (0000ms, 0788ms total)
T1F24 001:404 JLINK_SetBPEx(Addr = 0x20000000, Type = 0xFFFFFFF2)  returns 0x0000000C (0000ms, 0788ms total)
T1F24 001:404 JLINK_Go() (0003ms, 0791ms total)
T1F24 001:407 JLINK_IsHalted()  returns FALSE (0001ms, 0792ms total)
T1F24 001:458 JLINK_IsHalted() -- CPU_ReadMem(2 bytes @ 0x20000000)  returns TRUE (0003ms, 0794ms total)
T1F24 001:461 JLINK_ReadReg(R15 (PC))  returns 0x20000000 (0000ms, 0791ms total)
T1F24 001:461 JLINK_ClrBPEx(BPHandle = 0x0000000C)  returns 0x00 (0000ms, 0791ms total)
T1F24 001:461 JLINK_ReadReg(R0)  returns 0x00000000 (0000ms, 0791ms total)
T1F24 001:462 JLINK_WriteMem(0x20000180, 0x0400 Bytes, ...) - Data: 24 68 24 F4 80 64 2A 4D 1C 3D 2C 60 00 BF 28 4C ... -- CPU_WriteMem(1024 bytes @ 0x20000180)  returns 0x400 (0008ms, 0799ms total)
T1F24 001:470 JLINK_WriteReg(R0, 0x08002000)  returns 0x00 (0000ms, 0799ms total)
T1F24 001:470 JLINK_WriteReg(R1, 0x00000400)  returns 0x00 (0000ms, 0799ms total)
T1F24 001:470 JLINK_WriteReg(R2, 0x20000180)  returns 0x00 (0000ms, 0799ms total)
T1F24 001:470 JLINK_WriteReg(R3, 0x00000000)  returns 0x00 (0000ms, 0799ms total)
T1F24 001:470 JLINK_WriteReg(R4, 0x00000000)  returns 0x00 (0000ms, 0799ms total)
T1F24 001:470 JLINK_WriteReg(R5, 0x00000000)  returns 0x00 (0000ms, 0799ms total)
T1F24 001:470 JLINK_WriteReg(R6, 0x00000000)  returns 0x00 (0000ms, 0799ms total)
T1F24 001:470 JLINK_WriteReg(R7, 0x00000000)  returns 0x00 (0000ms, 0799ms total)
T1F24 001:470 JLINK_WriteReg(R8, 0x00000000)  returns 0x00 (0000ms, 0799ms total)
T1F24 001:470 JLINK_WriteReg(R9, 0x2000017C)  returns 0x00 (0000ms, 0799ms total)
T1F24 001:470 JLINK_WriteReg(R10, 0x00000000)  returns 0x00 (0000ms, 0799ms total)
T1F24 001:470 JLINK_WriteReg(R11, 0x00000000)  returns 0x00 (0000ms, 0799ms total)
T1F24 001:470 JLINK_WriteReg(R12, 0x00000000)  returns 0x00 (0000ms, 0799ms total)
T1F24 001:470 JLINK_WriteReg(R13 (SP), 0x20000800)  returns 0x00 (0000ms, 0799ms total)
T1F24 001:470 JLINK_WriteReg(R14, 0x20000001)  returns 0x00 (0000ms, 0799ms total)
T1F24 001:470 JLINK_WriteReg(R15 (PC), 0x20000108)  returns 0x00 (0000ms, 0799ms total)
T1F24 001:470 JLINK_WriteReg(XPSR, 0x01000000)  returns 0x00 (0000ms, 0799ms total)
T1F24 001:470 JLINK_WriteReg(MSP, 0x20000800)  returns 0x00 (0000ms, 0799ms total)
T1F24 001:470 JLINK_WriteReg(PSP, 0x20000800)  returns 0x00 (0000ms, 0799ms total)
T1F24 001:470 JLINK_WriteReg(CFBP, 0x00000000)  returns 0x00 (0000ms, 0799ms total)
T1F24 001:470 JLINK_SetBPEx(Addr = 0x20000000, Type = 0xFFFFFFF2)  returns 0x0000000D (0000ms, 0799ms total)
T1F24 001:470 JLINK_Go() (0001ms, 0800ms total)
T1F24 001:471 JLINK_IsHalted()  returns FALSE (0001ms, 0801ms total)
T1F24 001:522 JLINK_IsHalted() -- CPU_ReadMem(2 bytes @ 0x20000000)  returns TRUE (0003ms, 0803ms total)
T1F24 001:525 JLINK_ReadReg(R15 (PC))  returns 0x20000000 (0000ms, 0800ms total)
T1F24 001:525 JLINK_ClrBPEx(BPHandle = 0x0000000D)  returns 0x00 (0000ms, 0800ms total)
T1F24 001:526 JLINK_ReadReg(R0)  returns 0x00000000 (0000ms, 0801ms total)
T1F24 001:527 JLINK_WriteMem(0x20000180, 0x0400 Bytes, ...) - Data: 2D 4A 1C 32 11 60 11 46 09 68 01 43 11 60 70 47 ... -- CPU_WriteMem(1024 bytes @ 0x20000180)  returns 0x400 (0008ms, 0809ms total)
T1F24 001:535 JLINK_WriteReg(R0, 0x08002400)  returns 0x00 (0000ms, 0809ms total)
T1F24 001:535 JLINK_WriteReg(R1, 0x00000400)  returns 0x00 (0000ms, 0809ms total)
T1F24 001:535 JLINK_WriteReg(R2, 0x20000180)  returns 0x00 (0000ms, 0809ms total)
T1F24 001:535 JLINK_WriteReg(R3, 0x00000000)  returns 0x00 (0000ms, 0809ms total)
T1F24 001:535 JLINK_WriteReg(R4, 0x00000000)  returns 0x00 (0000ms, 0809ms total)
T1F24 001:535 JLINK_WriteReg(R5, 0x00000000)  returns 0x00 (0000ms, 0809ms total)
T1F24 001:535 JLINK_WriteReg(R6, 0x00000000)  returns 0x00 (0000ms, 0809ms total)
T1F24 001:535 JLINK_WriteReg(R7, 0x00000000)  returns 0x00 (0000ms, 0809ms total)
T1F24 001:535 JLINK_WriteReg(R8, 0x00000000)  returns 0x00 (0000ms, 0809ms total)
T1F24 001:535 JLINK_WriteReg(R9, 0x2000017C)  returns 0x00 (0000ms, 0809ms total)
T1F24 001:535 JLINK_WriteReg(R10, 0x00000000)  returns 0x00 (0000ms, 0809ms total)
T1F24 001:535 JLINK_WriteReg(R11, 0x00000000)  returns 0x00 (0000ms, 0809ms total)
T1F24 001:535 JLINK_WriteReg(R12, 0x00000000)  returns 0x00 (0001ms, 0810ms total)
T1F24 001:536 JLINK_WriteReg(R13 (SP), 0x20000800)  returns 0x00 (0000ms, 0810ms total)
T1F24 001:536 JLINK_WriteReg(R14, 0x20000001)  returns 0x00 (0000ms, 0810ms total)
T1F24 001:536 JLINK_WriteReg(R15 (PC), 0x20000108)  returns 0x00 (0000ms, 0810ms total)
T1F24 001:536 JLINK_WriteReg(XPSR, 0x01000000)  returns 0x00 (0000ms, 0810ms total)
T1F24 001:536 JLINK_WriteReg(MSP, 0x20000800)  returns 0x00 (0000ms, 0810ms total)
T1F24 001:536 JLINK_WriteReg(PSP, 0x20000800)  returns 0x00 (0000ms, 0810ms total)
T1F24 001:536 JLINK_WriteReg(CFBP, 0x00000000)  returns 0x00 (0000ms, 0810ms total)
T1F24 001:536 JLINK_SetBPEx(Addr = 0x20000000, Type = 0xFFFFFFF2)  returns 0x0000000E (0000ms, 0810ms total)
T1F24 001:536 JLINK_Go() (0002ms, 0812ms total)
T1F24 001:538 JLINK_IsHalted()  returns FALSE (0000ms, 0812ms total)
T1F24 001:588 JLINK_IsHalted() -- CPU_ReadMem(2 bytes @ 0x20000000)  returns TRUE (0003ms, 0815ms total)
T1F24 001:591 JLINK_ReadReg(R15 (PC))  returns 0x20000000 (0000ms, 0812ms total)
T1F24 001:591 JLINK_ClrBPEx(BPHandle = 0x0000000E)  returns 0x00 (0000ms, 0812ms total)
T1F24 001:591 JLINK_ReadReg(R0)  returns 0x00000000 (0000ms, 0812ms total)
T1F24 001:592 JLINK_WriteMem(0x20000180, 0x0400 Bytes, ...) - Data: 42 F4 80 62 82 83 04 E0 82 8B 4F F6 FF 33 1A 40 ... -- CPU_WriteMem(1024 bytes @ 0x20000180)  returns 0x400 (0008ms, 0820ms total)
T1F24 001:600 JLINK_WriteReg(R0, 0x08002800)  returns 0x00 (0000ms, 0820ms total)
T1F24 001:600 JLINK_WriteReg(R1, 0x000002B8)  returns 0x00 (0000ms, 0820ms total)
T1F24 001:600 JLINK_WriteReg(R2, 0x20000180)  returns 0x00 (0000ms, 0820ms total)
T1F24 001:600 JLINK_WriteReg(R3, 0x00000000)  returns 0x00 (0000ms, 0820ms total)
T1F24 001:600 JLINK_WriteReg(R4, 0x00000000)  returns 0x00 (0000ms, 0820ms total)
T1F24 001:600 JLINK_WriteReg(R5, 0x00000000)  returns 0x00 (0000ms, 0820ms total)
T1F24 001:600 JLINK_WriteReg(R6, 0x00000000)  returns 0x00 (0000ms, 0820ms total)
T1F24 001:600 JLINK_WriteReg(R7, 0x00000000)  returns 0x00 (0001ms, 0821ms total)
T1F24 001:601 JLINK_WriteReg(R8, 0x00000000)  returns 0x00 (0000ms, 0821ms total)
T1F24 001:601 JLINK_WriteReg(R9, 0x2000017C)  returns 0x00 (0000ms, 0821ms total)
T1F24 001:601 JLINK_WriteReg(R10, 0x00000000)  returns 0x00 (0000ms, 0821ms total)
T1F24 001:601 JLINK_WriteReg(R11, 0x00000000)  returns 0x00 (0000ms, 0821ms total)
T1F24 001:601 JLINK_WriteReg(R12, 0x00000000)  returns 0x00 (0000ms, 0821ms total)
T1F24 001:601 JLINK_WriteReg(R13 (SP), 0x20000800)  returns 0x00 (0000ms, 0821ms total)
T1F24 001:601 JLINK_WriteReg(R14, 0x20000001)  returns 0x00 (0000ms, 0821ms total)
T1F24 001:601 JLINK_WriteReg(R15 (PC), 0x20000108)  returns 0x00 (0000ms, 0821ms total)
T1F24 001:601 JLINK_WriteReg(XPSR, 0x01000000)  returns 0x00 (0000ms, 0821ms total)
T1F24 001:601 JLINK_WriteReg(MSP, 0x20000800)  returns 0x00 (0000ms, 0821ms total)
T1F24 001:601 JLINK_WriteReg(PSP, 0x20000800)  returns 0x00 (0000ms, 0821ms total)
T1F24 001:601 JLINK_WriteReg(CFBP, 0x00000000)  returns 0x00 (0000ms, 0821ms total)
T1F24 001:601 JLINK_SetBPEx(Addr = 0x20000000, Type = 0xFFFFFFF2)  returns 0x0000000F (0000ms, 0821ms total)
T1F24 001:601 JLINK_Go() (0001ms, 0822ms total)
T1F24 001:603 JLINK_IsHalted()  returns FALSE (0000ms, 0823ms total)
T1F24 001:653 JLINK_IsHalted() -- CPU_ReadMem(2 bytes @ 0x20000000)  returns TRUE (0003ms, 0826ms total)
T1F24 001:656 JLINK_ReadReg(R15 (PC))  returns 0x20000000 (0000ms, 0823ms total)
T1F24 001:656 JLINK_ClrBPEx(BPHandle = 0x0000000F)  returns 0x00 (0000ms, 0823ms total)
T1F24 001:656 JLINK_ReadReg(R0)  returns 0x00000000 (0000ms, 0823ms total)
T1F24 001:656 JLINK_WriteReg(R0, 0x00000002)  returns 0x00 (0000ms, 0823ms total)
T1F24 001:656 JLINK_WriteReg(R1, 0x000002B8)  returns 0x00 (0000ms, 0823ms total)
T1F24 001:657 JLINK_WriteReg(R2, 0x20000180)  returns 0x00 (0000ms, 0824ms total)
T1F24 001:657 JLINK_WriteReg(R3, 0x00000000)  returns 0x00 (0000ms, 0824ms total)
T1F24 001:657 JLINK_WriteReg(R4, 0x00000000)  returns 0x00 (0000ms, 0824ms total)
T1F24 001:657 JLINK_WriteReg(R5, 0x00000000)  returns 0x00 (0000ms, 0824ms total)
T1F24 001:657 JLINK_WriteReg(R6, 0x00000000)  returns 0x00 (0000ms, 0824ms total)
T1F24 001:657 JLINK_WriteReg(R7, 0x00000000)  returns 0x00 (0000ms, 0824ms total)
T1F24 001:657 JLINK_WriteReg(R8, 0x00000000)  returns 0x00 (0000ms, 0824ms total)
T1F24 001:657 JLINK_WriteReg(R9, 0x2000017C)  returns 0x00 (0000ms, 0824ms total)
T1F24 001:657 JLINK_WriteReg(R10, 0x00000000)  returns 0x00 (0000ms, 0824ms total)
T1F24 001:657 JLINK_WriteReg(R11, 0x00000000)  returns 0x00 (0000ms, 0824ms total)
T1F24 001:657 JLINK_WriteReg(R12, 0x00000000)  returns 0x00 (0000ms, 0824ms total)
T1F24 001:657 JLINK_WriteReg(R13 (SP), 0x20000800)  returns 0x00 (0000ms, 0824ms total)
T1F24 001:657 JLINK_WriteReg(R14, 0x20000001)  returns 0x00 (0000ms, 0824ms total)
T1F24 001:657 JLINK_WriteReg(R15 (PC), 0x20000082)  returns 0x00 (0000ms, 0824ms total)
T1F24 001:657 JLINK_WriteReg(XPSR, 0x01000000)  returns 0x00 (0000ms, 0824ms total)
T1F24 001:657 JLINK_WriteReg(MSP, 0x20000800)  returns 0x00 (0000ms, 0824ms total)
T1F24 001:657 JLINK_WriteReg(PSP, 0x20000800)  returns 0x00 (0000ms, 0824ms total)
T1F24 001:657 JLINK_WriteReg(CFBP, 0x00000000)  returns 0x00 (0000ms, 0824ms total)
T1F24 001:657 JLINK_SetBPEx(Addr = 0x20000000, Type = 0xFFFFFFF2)  returns 0x00000010 (0000ms, 0824ms total)
T1F24 001:657 JLINK_Go() (0002ms, 0826ms total)
T1F24 001:659 JLINK_IsHalted() -- CPU_ReadMem(2 bytes @ 0x20000000)  returns TRUE (0003ms, 0829ms total)
T1F24 001:662 JLINK_ReadReg(R15 (PC))  returns 0x20000000 (0000ms, 0826ms total)
T1F24 001:662 JLINK_ClrBPEx(BPHandle = 0x00000010)  returns 0x00 (0000ms, 0826ms total)
T1F24 001:662 JLINK_ReadReg(R0)  returns 0x00000000 (0000ms, 0826ms total)
T1F24 001:721 JLINK_WriteMem(0x20000000, 0x0180 Bytes, ...) - Data: 00 BE 0A E0 0D 78 2D 06 68 40 08 24 40 00 00 D3 ... -- CPU_WriteMem(384 bytes @ 0x20000000)  returns 0x180 (0004ms, 0830ms total)
T1F24 001:725 JLINK_WriteReg(R0, 0x08000000)  returns 0x00 (0000ms, 0830ms total)
T1F24 001:725 JLINK_WriteReg(R1, 0x017D7840)  returns 0x00 (0000ms, 0830ms total)
T1F24 001:725 JLINK_WriteReg(R2, 0x00000003)  returns 0x00 (0000ms, 0830ms total)
T1F24 001:725 JLINK_WriteReg(R3, 0x00000000)  returns 0x00 (0000ms, 0830ms total)
T1F24 001:725 JLINK_WriteReg(R4, 0x00000000)  returns 0x00 (0000ms, 0830ms total)
T1F24 001:725 JLINK_WriteReg(R5, 0x00000000)  returns 0x00 (0000ms, 0830ms total)
T1F24 001:725 JLINK_WriteReg(R6, 0x00000000)  returns 0x00 (0000ms, 0830ms total)
T1F24 001:725 JLINK_WriteReg(R7, 0x00000000)  returns 0x00 (0000ms, 0830ms total)
T1F24 001:725 JLINK_WriteReg(R8, 0x00000000)  returns 0x00 (0000ms, 0830ms total)
T1F24 001:726 JLINK_WriteReg(R9, 0x2000017C)  returns 0x00 (0000ms, 0831ms total)
T1F24 001:726 JLINK_WriteReg(R10, 0x00000000)  returns 0x00 (0000ms, 0831ms total)
T1F24 001:726 JLINK_WriteReg(R11, 0x00000000)  returns 0x00 (0000ms, 0831ms total)
T1F24 001:726 JLINK_WriteReg(R12, 0x00000000)  returns 0x00 (0000ms, 0831ms total)
T1F24 001:726 JLINK_WriteReg(R13 (SP), 0x20000800)  returns 0x00 (0000ms, 0831ms total)
T1F24 001:726 JLINK_WriteReg(R14, 0x20000001)  returns 0x00 (0000ms, 0831ms total)
T1F24 001:726 JLINK_WriteReg(R15 (PC), 0x20000054)  returns 0x00 (0000ms, 0831ms total)
T1F24 001:726 JLINK_WriteReg(XPSR, 0x01000000)  returns 0x00 (0000ms, 0831ms total)
T1F24 001:726 JLINK_WriteReg(MSP, 0x20000800)  returns 0x00 (0000ms, 0831ms total)
T1F24 001:726 JLINK_WriteReg(PSP, 0x20000800)  returns 0x00 (0000ms, 0831ms total)
T1F24 001:726 JLINK_WriteReg(CFBP, 0x00000000)  returns 0x00 (0000ms, 0831ms total)
T1F24 001:726 JLINK_SetBPEx(Addr = 0x20000000, Type = 0xFFFFFFF2) -- CPU_ReadMem(2 bytes @ 0x20000000)  returns 0x00000011 (0001ms, 0832ms total)
T1F24 001:727 JLINK_Go() -- CPU_WriteMem(2 bytes @ 0x20000000) (0002ms, 0834ms total)
T1F24 001:729 JLINK_IsHalted() -- CPU_ReadMem(2 bytes @ 0x20000000)  returns TRUE (0004ms, 0838ms total)
T1F24 001:733 JLINK_ReadReg(R15 (PC))  returns 0x20000000 (0000ms, 0834ms total)
T1F24 001:733 JLINK_ClrBPEx(BPHandle = 0x00000011)  returns 0x00 (0000ms, 0834ms total)
T1F24 001:733 JLINK_ReadReg(R0)  returns 0x00000000 (0000ms, 0834ms total)
T1F24 001:733 JLINK_WriteReg(R0, 0xFFFFFFFF)  returns 0x00 (0000ms, 0834ms total)
T1F24 001:733 JLINK_WriteReg(R1, 0x08000000)  returns 0x00 (0000ms, 0834ms total)
T1F24 001:733 JLINK_WriteReg(R2, 0x00002AB8)  returns 0x00 (0000ms, 0834ms total)
T1F24 001:733 JLINK_WriteReg(R3, 0x04C11DB7)  returns 0x00 (0000ms, 0834ms total)
T1F24 001:733 JLINK_WriteReg(R4, 0x00000000)  returns 0x00 (0000ms, 0834ms total)
T1F24 001:733 JLINK_WriteReg(R5, 0x00000000)  returns 0x00 (0000ms, 0834ms total)
T1F24 001:733 JLINK_WriteReg(R6, 0x00000000)  returns 0x00 (0000ms, 0834ms total)
T1F24 001:734 JLINK_WriteReg(R7, 0x00000000)  returns 0x00 (0000ms, 0834ms total)
T1F24 001:734 JLINK_WriteReg(R8, 0x00000000)  returns 0x00 (0000ms, 0834ms total)
T1F24 001:734 JLINK_WriteReg(R9, 0x2000017C)  returns 0x00 (0000ms, 0834ms total)
T1F24 001:734 JLINK_WriteReg(R10, 0x00000000)  returns 0x00 (0000ms, 0834ms total)
T1F24 001:734 JLINK_WriteReg(R11, 0x00000000)  returns 0x00 (0000ms, 0834ms total)
T1F24 001:734 JLINK_WriteReg(R12, 0x00000000)  returns 0x00 (0000ms, 0834ms total)
T1F24 001:734 JLINK_WriteReg(R13 (SP), 0x20000800)  returns 0x00 (0000ms, 0834ms total)
T1F24 001:734 JLINK_WriteReg(R14, 0x20000001)  returns 0x00 (0000ms, 0834ms total)
T1F24 001:734 JLINK_WriteReg(R15 (PC), 0x20000002)  returns 0x00 (0000ms, 0834ms total)
T1F24 001:734 JLINK_WriteReg(XPSR, 0x01000000)  returns 0x00 (0000ms, 0834ms total)
T1F24 001:734 JLINK_WriteReg(MSP, 0x20000800)  returns 0x00 (0000ms, 0834ms total)
T1F24 001:734 JLINK_WriteReg(PSP, 0x20000800)  returns 0x00 (0000ms, 0834ms total)
T1F24 001:734 JLINK_WriteReg(CFBP, 0x00000000)  returns 0x00 (0000ms, 0834ms total)
T1F24 001:734 JLINK_SetBPEx(Addr = 0x20000000, Type = 0xFFFFFFF2)  returns 0x00000012 (0000ms, 0834ms total)
T1F24 001:734 JLINK_Go() (0002ms, 0836ms total)
T1F24 001:736 JLINK_IsHalted()  returns FALSE (0001ms, 0837ms total)
T1F24 001:787 JLINK_IsHalted()  returns FALSE (0000ms, 0836ms total)
